EXPLAIN
TAG	EISPOT
TITLE	LABEL	Potentiostatic EIS	Test Identifier
DATE	LABEL	25.1.2024	Date
TIME	LABEL	11:02:08	Time
NOTES	NOTES	3	Notes...
	
PSTAT	PSTAT	IFC1010-30012	Potentiostat
VDC	POTEN	0.00000E+000	T	DC Voltage (V)
FREQINIT	QUANT	1.00000E+005	Initial Freq. (Hz)
FREQFINAL	QUANT	2.00000E-001	Final Freq. (Hz)
PTSPERDEC	QUANT	1.00000E+001	Points/decade
VAC	QUANT	1.00000E+001	AC Voltage (mV rms)
AREA	QUANT	1.00000E+000	Sample Area (cm^2)
SPEED	SELECTOR	1	Optimize for:
DRIFTCOR	SELECTOR	0	Drift Correction
THD	SELECTOR	0	THD
ZGUESS	QUANT	1.00000E+003	Estimated Z (ohms)
EOC	QUANT	0	Open Circuit (V)
SEQUENCER	TOGGLE	TRUE	Run as Sequence
PSTATMODEL	IQUANT	64	Pstat Model
PSTATSECTION	LABEL	IFC1010-30012	Pstat Section
PSTATSERIALNO	LABEL	30012	Pstat Serial Number
CTRLMODE	IQUANT	1	Control Mode
ELECTROMETER	IQUANT	0	RE=0 or CS=1
IESTAB	IQUANT	0	I/E Stability
CASPEED	IQUANT	3	Control Amp Speed
CONVENTION	IQUANT	1	Current Convention
ICHRANGE	IQUANT	2	Ich Range
ICHRANGEMODE	TOGGLE	F	Ich Auto Range
ICHOFFSETENABLE	TOGGLE	T	Ich Offset Enable
ICHOFFSET	QUANT	0	Ich Offset (V)
ICHFILTER	IQUANT	4	Ich Filter
VCHRANGE	IQUANT	2	Vch Range
VCHRANGEMODE	TOGGLE	F	Vch Auto Range
VCHOFFSETENABLE	TOGGLE	T	Vch Offset Enable
VCHOFFSET	QUANT	0	Vch Offset (V)
VCHFILTER	IQUANT	4	Vch Filter
IERANGELOWERLIMIT	IQUANT	4	I/E Range Lower Limit
IERANGEMODE	TOGGLE	F	I/E AutoRange
IERANGE	IQUANT	11	I/E Range
ACHSELECT	IQUANT	0	Ach Select
ACHRANGE	IQUANT	2	Ach Range
ACHOFFSETENABLE	TOGGLE	F	Ach Offset Enable
ACHOFFSET	QUANT	0	Ach Offset (V)
ACHFILTER	IQUANT	1	Ach Filter
SENSECABLEID	IQUANT	14	Sense Cable ID
PWRCABLEID	IQUANT	14	Power Cable ID
DCCALDATE	LABEL	1/3/2024	DC Calibration Date
ACCALDATE	LABEL	12/13/2022	AC Calibration Date
FRAMEWORKVERSION	LABEL	7.10.1	Framework Version
INSTRUMENTVERSION	LABEL	4.80	Instrument Version
COMMVERSION	LABEL	3.10	Communications Version
CPUPLDVERSION	LABEL	2.22	CPU PLD Version
CTRLPLDVERSION	LABEL	0.00	CTRL PLD Version
PSTATPLDVERSION	LABEL	0.00	PSTAT PLD Version
ZCURVE	TABLE
	Pt	Time	Freq	Zreal	Zimag	Zsig	Zmod	Zphz	Idc	Vdc	IERange	Imod	Vmod	Temp
	#	s	Hz	ohm	ohm	V	ohm	°	A	V	#	A	V	°C
	0	7	100019.5	59.89103	-11.25287	1	60.939	-10.64119	-1.365696E-006	-0.00061	9	0.0001651	0.0100411	1395.24
	1	9	79511.72	58.61285	-0.965082	1	58.6208	-0.943311	-1.433537E-006	-0.0006739	9	0.0001759	0.0102964	1394.63
	2	12	63105.47	57.35844	-14.09869	1	59.06576	-13.80952	6.238415E-007	0.0006641	9	0.0002184	0.0128856	1395.327
	3	14	50214.84	59.85175	-14.30479	1	61.53746	-13.44175	1.251316E-007	-0.0007287	9	0.0001756	0.0107968	1394.717
	4	17	39902.34	61.56408	-14.32035	1	63.20766	-13.09465	-1.091872E-006	0.0006421	9	0.0001654	0.0104509	1394.804
	5	19	31699.22	61.7971	-14.59796	1	63.49789	-13.29099	1.985521E-006	0.0005847	9	0.0001594	0.0101166	1394.63
	6	22	25136.72	63.85358	-15.35511	1	65.67389	-13.52139	-1.307626E-006	-0.000554	9	0.0001563	0.0102616	1394.717
	7	24	19980.47	65.87603	-16.93599	1	68.01823	-14.41787	3.443493E-006	0.0006799	9	0.0001468	0.009982	1394.717
	8	26	15878.91	69.1067	-17.23047	1	71.22236	-14.00018	-2.658516E-007	-0.0008379	9	0.0001424	0.0101413	1394.717
	9	27	12597.66	69.33725	-21.97985	1	72.73766	-17.58857	2.698633E-006	0.0004193	9	0.000135	0.0098189	1394.892
	10	29	10019.53	70.59059	-25.32128	1	74.99466	-19.73322	1.633066E-007	0.0004527	9	0.0001332	0.0099886	1395.414
	11	31	7928.241	69.91731	-29.18173	1	75.76281	-22.65443	-1.373299E-006	-0.0001316	9	0.0001316	0.0099695	1395.501
	12	33	6307.871	73.31433	-34.38414	1	80.97691	-25.1264	-7.485351E-007	-5.558286E-005	9	0.0001247	0.0100983	1394.979
	13	35	5034.722	74.72129	-39.22402	1	84.39072	-27.69667	-5.899586E-007	-4.230498E-005	9	0.0001136	0.0096298	1394.717
	14	37	3993.056	76.24124	-46.91162	1	89.51775	-31.6042	-5.108881E-007	-4.428585E-005	9	0.0001131	0.0101513	1394.63
	15	39	3144.055	77.77089	-57.18498	1	96.532	-36.32707	-5.164508E-007	1.099069E-005	9	0.0001038	0.0100356	1394.804
	16	40	2519.531	79.09458	-69.16138	1	105.0678	-41.16689	-4.657692E-007	7.971212E-006	9	0.0000951	0.0100093	1394.892
	17	42	2000.762	80.96372	-84.79665	1	117.2416	-46.32463	-5.656673E-007	1.614373E-005	9	8.4972E-005	0.0099702	1394.892
	18	44	1580.669	82.80506	-104.9313	1	133.6684	-51.72175	-5.615385E-007	1.08E-005	9	7.463439E-005	0.0099812	1394.63
	19	46	1253.634	85.55593	-129.5653	1	155.2642	-56.56199	-4.87482E-007	1.128818E-005	9	6.440827E-005	0.0100034	1394.63
	20	47	1000.702	88.69112	-159.9475	1	182.8916	-60.99157	-5.071112E-007	-4.18179E-005	9	5.464716E-005	0.0099965	1395.327
	21	49	790.0281	91.47309	-202.835	1	222.507	-65.72591	-3.275485E-007	-4.563266E-005	8	4.527605E-005	0.0100755	1395.327
	22	51	628.811	97.3254	-248.8606	1	267.215	-68.64033	-3.940913E-007	1.827514E-005	8	3.731074E-005	0.0099708	1394.717
	23	53	502.2321	102.7222	-305.6856	1	322.4834	-71.42565	-3.955445E-007	1.130008E-005	8	2.935949E-005	0.0096036	1394.892
	24	54	400.1524	111.434	-376.9537	1	393.0797	-73.53141	-3.8621E-007	1.081705E-005	8	2.572054E-005	0.0101974	1395.501
	25	56	315.5048	121.6157	-470.6217	1	486.0815	-75.51089	-3.669172E-007	1.015755E-005	8	2.063565E-005	0.0100817	1394.979
	26	58	252.0161	133.2321	-580.7869	1	595.8726	-77.07993	-3.568165E-007	6.270406E-006	8	1.67332E-005	0.010002	1394.804
	27	60	200.3205	145.5335	-726.9743	1	741.3984	-78.67957	-3.576887E-007	6.538503E-006	8	1.345128E-005	0.0099919	1395.414
	28	61	158.0056	172.1273	-899.0931	1	915.4214	-79.16212	-3.692795E-007	7.457787E-006	8	1.089089E-005	0.0099814	1395.066
	29	63	125.558	200.1203	-1115.841	1	1133.645	-79.8324	-3.417097E-007	1.019111E-005	8	8.71234E-006	0.0098839	1394.979
	30	65	99.734	216.2089	-1394.21	1	1410.875	-81.18501	-3.658453E-007	5.527356E-006	8	6.929347E-006	0.0097809	1394.804
	31	67	79.44915	275.8448	-1708.814	1	1730.935	-80.83015	-3.864557E-007	1.319296E-005	8	5.857644E-006	0.0101421	1394.892
	32	68	62.91946	445.9633	-2437.248	1	2477.713	-79.63083	-4.33095E-007	1.418068E-005	7	4.038929E-006	0.0100091	1394.717
	33	70	49.86702	318.7628	-3004.991	1	3021.851	-83.94483	-4.510058E-007	1.59427E-005	7	3.308437E-006	0.0099987	1394.892
	34	72	38.42213	724.4052	-4212.135	1	4273.973	-80.2417	-5.266605E-007	1.540779E-005	7	2.338742E-006	0.0099964	1395.153
	35	74	31.25	6057.584	-66452.49	1	66728.02	-84.7915	-3.26627E-007	1.859737E-005	7	1.49857E-007	0.0100001	1394.804
	36	76	24.93351	31022.93	-287586.4	1	289254.9	-83.84312	-1.657963E-007	1.42965E-005	6	3.457366E-008	0.0100012	1394.63
	37	78	20.03205	-189941.4	-741640.6	1	765577.3	-104.3652	-9.572077E-008	1.706684E-005	6	1.305889E-008	0.009998	1394.63
	38	81	15.625	154296.8	-662992.4	1	680710.2	-76.89889	-6.22062E-008	1.728043E-005	6	1.4691E-008	0.0100006	1394.544
	39	84	12.46675	108579.2	-557477.1	1	567952.6	-78.97855	-3.310672E-008	1.391284E-005	6	1.760607E-008	0.0099996	1394.544
	40	87	9.9734	159789.4	-1024212	1	1036601	-81.13265	-3.58748E-008	1.782955E-005	6	9.646755E-009	0.0099999	1394.872
	41	90	7.971939	374530.8	-1285902	1	1339335	-73.76131	-4.007067E-008	1.760415E-005	6	7.465316E-009	0.0099986	1394.63
	42	93	6.351626	-116519.7	-1325085	1	1330198	-95.0253	-4.672654E-008	1.64487E-005	6	7.518127E-009	0.0100006	1394.544
	43	98	5.013369	2415351	-7570987	1	7946934	-72.3059	-2.354114E-008	1.816189E-005	5	1.258406E-009	0.0100008	1394.63
	44	101	3.985969	428457.8	-1409201	1	1472896	-73.08846	-2.725653E-008	1.413395E-005	6	6.788731E-009	0.0099991	1394.63
	45	109	3.175813	8481.178	-30436.86	1	31596.4	-74.4296	-3.766203E-007	1.95203E-005	8	3.164751E-007	0.0099995	1394.979
	46	116	2.516103	849620.2	-2668185	1	2800190	-72.33716	-1.875162E-007	1.570588E-005	6	3.437177E-009	0.0096616	1394.717
	47	122	1.99553	1343978	-2508862	1	2846167	-61.82239	-9.844059E-008	1.638688E-005	6	3.576574E-009	0.0102057	1394.804
	48	129	1.587906	1715773	-4092858	1	4437946	-67.25601	-6.085497E-008	1.722664E-005	6	2.2687E-009	0.0100853	1394.804
	49	138	1.258052	5087710	-8119750	1	9.582021E+006	-57.92938	-2.107114E-008	1.489906E-005	5	1.046327E-009	0.0100367	1394.717
	50	150	0.997765	-3.548128E+007	-3.551316E+007	1	5.020065E+007	-134.9743	-1.289387E-008	1.415195E-005	5	1.993732E-010	0.0100155	1394.892
	51	157	0.7927448	1.793693E+007	-1.264116E+007	1	2.194385E+007	-35.17448	-8.312877E-009	1.350785E-005	5	4.558262E-010	0.0100069	1395.414
	52	168	0.6290258	7926391	-2.256734E+007	1	2.391887E+007	-70.64705	-5.582211E-009	1.431181E-005	5	4.181371E-010	0.0100041	1394.892
	53	182	0.4988825	3.264937E+008	-2.297838E+008	1	3.992477E+008	-35.1376	-2.270673E-009	1.218036E-005	4	2.504734E-011	0.010002	1395.266
	54	198	0.3985969	2.03373E+008	-8.109493E+007	1	2.189452E+008	-21.73962	-7.624546E-010	1.509206E-005	4	4.567311E-011	0.0100011	1395.327
	55	224	0.316723	-2.107325E+008	-2.574947E+008	1	3.327337E+008	-129.2967	-1.158557E-009	1.585619E-005	4	3.005485E-011	0.010001	1394.804
	56	255	0.2514753	-1.696206E+008	-2.349108E+007	1	1.712395E+008	-172.1152	-6.315101E-010	1.521215E-005	4	5.840081E-011	0.010001	1395.414
	57	313	0.1999787	1.460058E+009	-1.21136E+009	1	1.897145E+009	-39.68133	-3.991066E-010	1.379045E-005	4	5.271399E-012	0.0100009	1394.892
